T2264 2158:122 SEGGER J-Link V6.32i Log File (0000ms, 0992ms total)
T2264 2158:122 DLL Compiled: Jul 24 2018 15:19:55 (0000ms, 0992ms total)
T2264 2158:122 Logging started @ 2019-05-19 01:22 (0000ms, 0992ms total)
T2264 2158:122 JLINK_SetWarnOutHandler(...) (0000ms, 0992ms total)
T2264 2158:122 JLINK_OpenEx(...)
Firmware: J-Link ARM V7 compiled Jun 20 2012 19:45:53
Hardware: V7.00
S/N: 57000442
Feature(s): RDI, FlashBP, FlashDL, JFlash, GDB
TELNET listener socket opened on port 19021Device "CORTEX-M3" selected.WEBSRV 
Starting webserver (0010ms, 1002ms total)
T2264 2158:122 WEBSRV Webserver running on local port 19080 (0010ms, 1002ms total)
T2264 2158:122   returns O.K. (0010ms, 1002ms total)
T2264 2158:132 JLINK_GetEmuCaps()  returns 0xB9FF7BBF (0000ms, 1002ms total)
T2264 2158:132 JLINK_TIF_GetAvailable(...) (0000ms, 1002ms total)
T2264 2158:132 JLINK_SetErrorOutHandler(...) (0000ms, 1002ms total)
T2264 2158:132 JLINK_ExecCommand("ProjectFile = "D:\milandr\uarttest\JLinkSettings.ini"", ...). Device "CORTEX-M3" selected.  returns 0x00 (0003ms, 1005ms total)
T2264 2158:135 JLINK_ExecCommand("Device = MDR1986BE92", ...). Device "CORTEX-M3" selected.  returns 0x00 (0001ms, 1006ms total)
T2264 2158:136 JLINK_ExecCommand("DisableConnectionTimeout", ...).   returns 0x01 (0000ms, 1006ms total)
T2264 2158:136 JLINK_GetHardwareVersion()  returns 0x11170 (0000ms, 1006ms total)
T2264 2158:136 JLINK_GetDLLVersion()  returns 63209 (0000ms, 1006ms total)
T2264 2158:136 JLINK_GetFirmwareString(...) (0000ms, 1006ms total)
T2264 2158:136 JLINK_GetDLLVersion()  returns 63209 (0000ms, 1006ms total)
T2264 2158:136 JLINK_GetCompileDateTime() (0000ms, 1006ms total)
T2264 2158:136 JLINK_GetFirmwareString(...) (0000ms, 1006ms total)
T2264 2158:136 JLINK_GetHardwareVersion()  returns 0x11170 (0000ms, 1006ms total)
T2264 2158:136 JLINK_TIF_Select(JLINKARM_TIF_SWD)  returns 0x00 (0001ms, 1007ms total)
T2264 2158:137 JLINK_SetSpeed(2000) (0000ms, 1007ms total)
T2264 2158:137 JLINK_GetId() >0x10B TIF>Found SW-DP with ID 0x2BA01477 >0x0D TIF> >0x28 TIF> >0x0D TIF> >0x28 TIF> >0x0D TIF> >0x28 TIF> >0x0D TIF> >0x28 TIF> >0x0D TIF> >0x21 TIF> >0x0D TIF> >0x28 TIF>Scanning AP map to find all available APs >0x0D TIF> >0x28 TIF> >0x0D TIF> >0x21 TIF> >0x0D TIF> >0x21 TIF> >0x0D TIF> >0x28 TIF> >0x0D TIF> >0x21 TIF> >0x0D TIF> >0x21 TIF>AP[1]: Stopped AP scan as end of AP map has been reachedAP[0]: AHB-AP (IDR: 0x24770011)Iterating through AP map to find AHB-AP to use
 >0x42 TIF> >0x28 TIF> >0x0D TIF> >0x28 TIF> >0x0D TIF> >0x21 TIF> >0x0D TIF> >0x21 TIF> >0x42 TIF> >0x28 TIF> >0x0D TIF> >0x28 TIF> >0x0D TIF> >0x28 TIF> >0x0D TIF> >0x21 TIF> >0x0D TIF> >0x21 TIF>AP[0]: Core foundAP[0]: AHB-AP ROM base: 0xE00FF000 >0x0D TIF> >0x28 TIF> >0x0D TIF> >0x28 TIF> >0x0D TIF> >0x28 TIF> >0x0D TIF> >0x21 TIF> >0x0D TIF> >0x21 TIF>CPUID register: 0x412FC230. Implementer code: 0x41 (ARM)Found Cortex-M3 r2p0, Little endian. >0x0D TIF> >0x28 TIF> -- Max. mem block: 0x00002328
 -- CPU_ReadMem(4 bytes @ 0xE000EDF0) -- CPU_WriteMem(4 bytes @ 0xE000EDF0) -- CPU_ReadMem(4 bytes @ 0xE0002000)FPUnit: 6 code (BP) slots and 2 literal slots -- CPU_ReadMem(4 bytes @ 0xE000EDFC) -- CPU_WriteMem(4 bytes @ 0xE000EDFC) -- CPU_ReadMem(4 bytes @ 0xE0001000) -- CPU_WriteMem(4 bytes @ 0xE0001000) -- CPU_ReadMem(4 bytes @ 0xE000ED88) -- CPU_WriteMem(4 bytes @ 0xE000ED88) -- CPU_ReadMem(4 bytes @ 0xE000ED88) -- CPU_WriteMem(4 bytes @ 0xE000ED88)CoreSight components:ROMTbl[0] @ E00FF000
 -- CPU_ReadMem(16 bytes @ 0xE00FF000) -- CPU_ReadMem(16 bytes @ 0xE000EFF0) -- CPU_ReadMem(16 bytes @ 0xE000EFE0)ROMTbl[0][0]: E000E000, CID: B105E00D, PID: 002BB000 SCS -- CPU_ReadMem(16 bytes @ 0xE0001FF0) -- CPU_ReadMem(16 bytes @ 0xE0001FE0)ROMTbl[0][1]: E0001000, CID: B105E00D, PID: 002BB002 DWT -- CPU_ReadMem(16 bytes @ 0xE0002FF0) -- CPU_ReadMem(16 bytes @ 0xE0002FE0)ROMTbl[0][2]: E0002000, CID: B105E00D, PID: 002BB003 FPB -- CPU_ReadMem(16 bytes @ 0xE0000FF0)
 -- CPU_ReadMem(16 bytes @ 0xE0000FE0)ROMTbl[0][3]: E0000000, CID: B105E00D, PID: 002BB001 ITM -- CPU_ReadMem(16 bytes @ 0xE00FF010) -- CPU_ReadMem(16 bytes @ 0xE0040FF0) -- CPU_ReadMem(16 bytes @ 0xE0040FE0)ROMTbl[0][4]: E0040000, CID: B105900D, PID: 002BB923 TPIU-Lite >0x0D TIF> >0x21 TIF>  returns 0x2BA01477 (0129ms, 1136ms total)
T2264 2158:266 JLINK_GetDLLVersion()  returns 63209 (0000ms, 1136ms total)
T2264 2158:266 JLINK_CORE_GetFound()  returns 0x30000FF (0000ms, 1136ms total)
T2264 2158:266 JLINK_GetDebugInfo(0x100 = JLINKARM_ROM_TABLE_ADDR_INDEX) -- Value=0xE00FF000  returns 0x00 (0000ms, 1136ms total)
T2264 2158:266 JLINK_GetDebugInfo(0x100 = JLINKARM_ROM_TABLE_ADDR_INDEX) -- Value=0xE00FF000  returns 0x00 (0000ms, 1136ms total)
T2264 2158:266 JLINK_GetDebugInfo(0x101 = JLINKARM_DEBUG_INFO_ETM_ADDR_INDEX) -- Value=0x00000000  returns 0x00 (0000ms, 1136ms total)
T2264 2158:266 JLINK_ReadMemEx(0xE0041FF0, 0x0010 Bytes, ..., Flags = 0x02000004) -- CPU_ReadMem(16 bytes @ 0xE0041FF0) - Data: 00 00 00 00 00 00 00 00 00 00 00 00 00 00 00 00  returns 0x10 (0001ms, 1137ms total)
T2264 2158:267 JLINK_GetDebugInfo(0x102 = JLINKARM_DEBUG_INFO_MTB_ADDR_INDEX) -- Value=0x00000000  returns 0x00 (0000ms, 1137ms total)
T2264 2158:267 JLINK_GetDebugInfo(0x103 = JLINKARM_DEBUG_INFO_TPIU_ADDR_INDEX) -- Value=0xE0040000  returns 0x00 (0000ms, 1137ms total)
T2264 2158:267 JLINK_GetDebugInfo(0x104 = JLINKARM_DEBUG_INFO_ITM_ADDR_INDEX) -- Value=0xE0000000  returns 0x00 (0000ms, 1137ms total)
T2264 2158:267 JLINK_GetDebugInfo(0x105 = JLINKARM_DEBUG_INFO_DWT_ADDR_INDEX) -- Value=0xE0001000  returns 0x00 (0000ms, 1137ms total)
T2264 2158:267 JLINK_GetDebugInfo(0x106 = JLINKARM_DEBUG_INFO_FPB_ADDR_INDEX) -- Value=0xE0002000  returns 0x00 (0000ms, 1137ms total)
T2264 2158:267 JLINK_GetDebugInfo(0x107 = JLINKARM_DEBUG_INFO_NVIC_ADDR_INDEX) -- Value=0xE000E000  returns 0x00 (0000ms, 1137ms total)
T2264 2158:267 JLINK_GetDebugInfo(0x10C = JLINKARM_DEBUG_INFO_DBG_ADDR_INDEX) -- Value=0xE000EDF0  returns 0x00 (0000ms, 1137ms total)
T2264 2158:267 JLINK_GetDebugInfo(0x01 = Unknown) -- Value=0x00000000  returns 0x00 (0000ms, 1137ms total)
T2264 2158:267 JLINK_ReadMemU32(0xE000ED00, 0x0001 Items, ...) -- CPU_ReadMem(4 bytes @ 0xE000ED00) - Data: 30 C2 2F 41  returns 0x01 (0000ms, 1137ms total)
T2264 2158:267 JLINK_GetDebugInfo(0x10F = JLINKARM_DEBUG_INFO_HAS_CORTEX_M_SECURITY_EXT_INDEX) -- Value=0x00000000  returns 0x00 (0000ms, 1137ms total)
T2264 2158:267 JLINK_SetResetType(JLINKARM_CM3_RESET_TYPE_NORMAL)  returns JLINKARM_CM3_RESET_TYPE_NORMAL (0000ms, 1137ms total)
T2264 2158:267 JLINK_Reset() -- CPU_WriteMem(4 bytes @ 0xE0002000) -- CPU_ReadMem(4 bytes @ 0xE000EDFC) -- CPU_ReadMem(4 bytes @ 0xE0001000) (0014ms, 1151ms total)
T2264 2158:281 JLINK_ReadReg(R15 (PC))  returns 0x000000A6 (0000ms, 1151ms total)
T2264 2158:281 JLINK_ReadReg(XPSR)  returns 0x01000000 (0000ms, 1151ms total)
T2264 2158:281 JLINK_Halt()  returns 0x00 (0000ms, 1151ms total)
T2264 2158:281 JLINK_ReadMemU32(0xE000EDF0, 0x0001 Items, ...) -- CPU_ReadMem(4 bytes @ 0xE000EDF0) - Data: 03 00 03 00  returns 0x01 (0001ms, 1152ms total)
T2264 2158:282 JLINK_WriteU32(0xE000EDF0, 0xA05F0003) -- CPU_WriteMem(4 bytes @ 0xE000EDF0)  returns 0x00 (0000ms, 1152ms total)
T2264 2158:282 JLINK_WriteU32(0xE000EDFC, 0x01000000) -- CPU_WriteMem(4 bytes @ 0xE000EDFC)  returns 0x00 (0001ms, 1153ms total)
T2264 2158:283 JLINK_GetHWStatus(...)  returns 0x00 (0000ms, 1153ms total)
T2264 2158:283 JLINK_GetNumBPUnits(Type = 0xFFFFFF00)  returns 0x06 (0000ms, 1153ms total)
T2264 2158:283 JLINK_GetNumBPUnits(Type = 0xF0)  returns 0x2000 (0000ms, 1153ms total)
T2264 2158:283 JLINK_GetNumWPUnits()  returns 0x04 (0000ms, 1153ms total)
T2264 2158:283 JLINK_GetSpeed()  returns 0x7D0 (0000ms, 1153ms total)
T2264 2158:283 JLINK_ReadMemU32(0xE000E004, 0x0001 Items, ...) -- CPU_ReadMem(4 bytes @ 0xE000E004) - Data: 00 00 00 00  returns 0x01 (0001ms, 1154ms total)
T2264 2158:284 JLINK_ReadMemU32(0xE000E004, 0x0001 Items, ...) -- CPU_ReadMem(4 bytes @ 0xE000E004) - Data: 00 00 00 00  returns 0x01 (0000ms, 1154ms total)
T2264 2158:284 JLINK_WriteMemEx(0xE0001000, 0x001C Bytes, ..., Flags = 0x02000004) - Data: 01 00 00 00 00 00 00 00 00 00 00 00 00 00 00 00 ... -- CPU_WriteMem(28 bytes @ 0xE0001000)  returns 0x1C (0001ms, 1155ms total)
T2264 2158:285 JLINK_ReadReg(R15 (PC))  returns 0x000000A6 (0000ms, 1155ms total)
T2264 2158:285 JLINK_ReadReg(XPSR)  returns 0x01000000 (0000ms, 1155ms total)
T2264 2158:301 JLINK_ReadMemEx(0xE0001004, 0x0004 Bytes, ..., Flags = 0x02000000) - Data: 00 00 00 00  returns 0x04 (0000ms, 1155ms total)
T2264 2158:368 JLINK_SetResetType(JLINKARM_CM3_RESET_TYPE_NORMAL)  returns JLINKARM_CM3_RESET_TYPE_NORMAL (0000ms, 1155ms total)
T2264 2158:368 JLINK_Reset() -- CPU_WriteMem(4 bytes @ 0xE0002000) -- CPU_ReadMem(4 bytes @ 0xE000EDFC) -- CPU_ReadMem(4 bytes @ 0xE0001000) (0014ms, 1169ms total)
T2264 2158:382 JLINK_ReadReg(R15 (PC))  returns 0x000000A6 (0000ms, 1169ms total)
T2264 2158:382 JLINK_ReadReg(XPSR)  returns 0x01000000 (0000ms, 1169ms total)
T2264 2158:382 JLINK_ReadReg(R0)  returns 0x00000000 (0000ms, 1169ms total)
T2264 2158:382 JLINK_ReadReg(R1)  returns 0x00000000 (0000ms, 1169ms total)
T2264 2158:382 JLINK_ReadReg(R2)  returns 0x00000000 (0000ms, 1169ms total)
T2264 2158:382 JLINK_ReadReg(R3)  returns 0x00000000 (0000ms, 1169ms total)
T2264 2158:382 JLINK_ReadReg(R4)  returns 0x00000000 (0000ms, 1169ms total)
T2264 2158:382 JLINK_ReadReg(R5)  returns 0x00000000 (0000ms, 1169ms total)
T2264 2158:382 JLINK_ReadReg(R6)  returns 0x00000000 (0000ms, 1169ms total)
T2264 2158:382 JLINK_ReadReg(R7)  returns 0x00000000 (0000ms, 1169ms total)
T2264 2158:382 JLINK_ReadReg(R8)  returns 0x00000000 (0000ms, 1169ms total)
T2264 2158:383 JLINK_ReadReg(R9)  returns 0x00000000 (0000ms, 1170ms total)
T2264 2158:383 JLINK_ReadReg(R10)  returns 0x00000000 (0000ms, 1170ms total)
T2264 2158:383 JLINK_ReadReg(R11)  returns 0x00000000 (0000ms, 1170ms total)
T2264 2158:383 JLINK_ReadReg(R12)  returns 0x00000000 (0000ms, 1170ms total)
T2264 2158:383 JLINK_ReadReg(R13 (SP))  returns 0x20008000 (0000ms, 1170ms total)
T2264 2158:383 JLINK_ReadReg(R14)  returns 0xFFFFFFFF (0000ms, 1170ms total)
T2264 2158:383 JLINK_ReadReg(R15 (PC))  returns 0x000000A6 (0000ms, 1170ms total)
T2264 2158:383 JLINK_ReadReg(XPSR)  returns 0x01000000 (0000ms, 1170ms total)
T2264 2158:383 JLINK_ReadReg(MSP)  returns 0x20008000 (0000ms, 1170ms total)
T2264 2158:383 JLINK_ReadReg(PSP)  returns 0x00000000 (0000ms, 1170ms total)
T2264 2158:383 JLINK_ReadReg(CFBP)  returns 0x00000000 (0000ms, 1170ms total)
T2264 2158:383 JLINK_ReadMemU32(0xE0001004, 0x0001 Items, ...) - Data: 00 00 00 00  returns 0x01 (0000ms, 1170ms total)
T2264 2158:383 JLINK_ReadMemEx(0x000000A6, 0x0002 Bytes, ..., Flags = 0x02000000) -- CPU_ReadMem(2 bytes @ 0x000000A6) - Data: 98 48  returns 0x02 (0001ms, 1171ms total)
T2264 2158:384 JLINK_ReadMemEx(0x000000A8, 0x003C Bytes, ..., Flags = 0x02000000) -- CPU_ReadMem(60 bytes @ 0x000000A8) - Data: 98 4D 28 60 98 4F 3E 68 70 05 02 D3 C6 F3 02 31 ...  returns 0x3C (0001ms, 1172ms total)
T2264 2159:419 JLINK_ReadMemEx(0x0800232C, 0x003C Bytes, ..., Flags = 0x02000000) -- CPU_ReadMem(60 bytes @ 0x0800232C) - Data: 0A 21 16 48 FF F7 28 FC 4F F4 FA 70 0D 49 08 60 ...  returns 0x3C (0001ms, 1173ms total)
T2D9C 2159:701 JLINK_ReadMemEx(0x000000A6, 0x0002 Bytes, ..., Flags = 0x02000000) -- CPU_ReadMem(2 bytes @ 0x000000A6) - Data: 98 48  returns 0x02 (0000ms, 1173ms total)
T2D9C 2159:701 JLINK_SetBPEx(Addr = 0x08002240, Type = 0xFFFFFFF2)  returns 0x00000001 (0000ms, 1173ms total)
T2D9C 2159:702 JLINK_SetBPEx(Addr = 0x080022BC, Type = 0xFFFFFFF2)  returns 0x00000002 (0000ms, 1174ms total)
T2D9C 2159:702 JLINK_Go() -- CPU_WriteMem(4 bytes @ 0xE0002000) -- CPU_WriteMem(4 bytes @ 0xE0002000) -- CPU_ReadMem(4 bytes @ 0xE0001000) -- CPU_WriteMem(4 bytes @ 0xE0002008) -- CPU_WriteMem(4 bytes @ 0xE000200C) -- CPU_WriteMem(4 bytes @ 0xE0002010) -- CPU_WriteMem(4 bytes @ 0xE0002014) -- CPU_WriteMem(4 bytes @ 0xE0002018) -- CPU_WriteMem(4 bytes @ 0xE000201C) -- CPU_WriteMem(4 bytes @ 0xE0001004) (0005ms, 1179ms total)
T2D9C 2159:808 JLINK_IsHalted()  returns TRUE (0004ms, 1183ms total)
T2D9C 2159:812 JLINK_Halt()  returns 0x00 (0001ms, 1180ms total)
T2D9C 2159:813 JLINK_IsHalted()  returns TRUE (0000ms, 1180ms total)
T2D9C 2159:813 JLINK_IsHalted()  returns TRUE (0000ms, 1180ms total)
T2D9C 2159:813 JLINK_IsHalted()  returns TRUE (0000ms, 1180ms total)
T2D9C 2159:813 JLINK_ReadReg(R15 (PC))  returns 0x08002240 (0000ms, 1180ms total)
T2D9C 2159:813 JLINK_ReadReg(XPSR)  returns 0x61000000 (0000ms, 1180ms total)
T2D9C 2159:813 JLINK_ClrBPEx(BPHandle = 0x00000001)  returns 0x00 (0000ms, 1180ms total)
T2D9C 2159:813 JLINK_ClrBPEx(BPHandle = 0x00000002)  returns 0x00 (0000ms, 1180ms total)
T2D9C 2159:813 JLINK_ReadMemU32(0xE000ED30, 0x0001 Items, ...) -- CPU_ReadMem(4 bytes @ 0xE000ED30) - Data: 0B 00 00 00  returns 0x01 (0000ms, 1180ms total)
T2D9C 2159:813 JLINK_ReadMemU32(0xE0001028, 0x0001 Items, ...) -- CPU_ReadMem(4 bytes @ 0xE0001028) - Data: 00 00 00 00  returns 0x01 (0002ms, 1182ms total)
T2D9C 2159:815 JLINK_ReadMemU32(0xE0001038, 0x0001 Items, ...) -- CPU_ReadMem(4 bytes @ 0xE0001038) - Data: 00 02 00 00  returns 0x01 (0000ms, 1182ms total)
T2D9C 2159:815 JLINK_ReadMemU32(0xE0001048, 0x0001 Items, ...) -- CPU_ReadMem(4 bytes @ 0xE0001048) - Data: 00 00 00 00  returns 0x01 (0001ms, 1183ms total)
T2D9C 2159:816 JLINK_ReadMemU32(0xE0001058, 0x0001 Items, ...) -- CPU_ReadMem(4 bytes @ 0xE0001058) - Data: 00 00 00 00  returns 0x01 (0000ms, 1183ms total)
T2D9C 2159:816 JLINK_ReadReg(R0)  returns 0x20000070 (0000ms, 1183ms total)
T2D9C 2159:816 JLINK_ReadReg(R1)  returns 0x20000270 (0000ms, 1183ms total)
T2D9C 2159:816 JLINK_ReadReg(R2)  returns 0x20000270 (0001ms, 1184ms total)
T2D9C 2159:817 JLINK_ReadReg(R3)  returns 0x20000270 (0000ms, 1184ms total)
T2D9C 2159:817 JLINK_ReadReg(R4)  returns 0x00000000 (0000ms, 1184ms total)
T2D9C 2159:817 JLINK_ReadReg(R5)  returns 0x20000010 (0000ms, 1184ms total)
T2D9C 2159:817 JLINK_ReadReg(R6)  returns 0x00000000 (0000ms, 1184ms total)
T2D9C 2159:817 JLINK_ReadReg(R7)  returns 0x00000000 (0000ms, 1184ms total)
T2D9C 2159:817 JLINK_ReadReg(R8)  returns 0x00000000 (0000ms, 1184ms total)
T2D9C 2159:817 JLINK_ReadReg(R9)  returns 0x00000000 (0000ms, 1184ms total)
T2D9C 2159:817 JLINK_ReadReg(R10)  returns 0x08002E34 (0000ms, 1184ms total)
T2D9C 2159:817 JLINK_ReadReg(R11)  returns 0x00000000 (0000ms, 1184ms total)
T2D9C 2159:817 JLINK_ReadReg(R12)  returns 0x20000050 (0000ms, 1184ms total)
T2D9C 2159:817 JLINK_ReadReg(R13 (SP))  returns 0x20000670 (0000ms, 1184ms total)
T2D9C 2159:817 JLINK_ReadReg(R14)  returns 0x08000165 (0000ms, 1184ms total)
T2D9C 2159:817 JLINK_ReadReg(R15 (PC))  returns 0x08002240 (0000ms, 1184ms total)
T2D9C 2159:817 JLINK_ReadReg(XPSR)  returns 0x61000000 (0000ms, 1184ms total)
T2D9C 2159:817 JLINK_ReadReg(MSP)  returns 0x20000670 (0000ms, 1184ms total)
T2D9C 2159:817 JLINK_ReadReg(PSP)  returns 0x00000000 (0000ms, 1184ms total)
T2D9C 2159:817 JLINK_ReadReg(CFBP)  returns 0x00000000 (0000ms, 1184ms total)
T2264 2159:818 JLINK_ReadMemEx(0x00000000, 0x0002 Bytes, ..., Flags = 0x02000000) -- CPU_ReadMem(2 bytes @ 0x00000000) - Data: 00 80  returns 0x02 (0000ms, 1184ms total)
T2264 2159:818 JLINK_ReadMemEx(0x00000000, 0x0004 Bytes, ..., Flags = 0x02000000) -- CPU_ReadMem(4 bytes @ 0x00000000) - Data: 00 80 00 20  returns 0x04 (0001ms, 1185ms total)
T2264 2159:819 JLINK_ReadMemEx(0x2000065C, 0x0011 Bytes, ..., Flags = 0x02000000) -- CPU_ReadMem(17 bytes @ 0x2000065C) - Data: 70 02 00 20 70 02 00 20 70 02 00 20 00 00 00 00 ...  returns 0x11 (0001ms, 1186ms total)
T2264 2159:820 JLINK_ReadMemEx(0x20000650, 0x000A Bytes, ..., Flags = 0x02000000) -- CPU_ReadMem(10 bytes @ 0x20000650) - Data: 30 00 00 20 4F 01 00 08 70 00  returns 0x0A (0001ms, 1187ms total)
T2264 2159:826 JLINK_ReadMemU32(0xE0001004, 0x0001 Items, ...) -- CPU_ReadMem(4 bytes @ 0xE0001004) - Data: E0 05 00 00  returns 0x01 (0001ms, 1188ms total)
T2264 2159:829 JLINK_ReadMemEx(0x08002140, 0x003C Bytes, ..., Flags = 0x02000000) -- CPU_ReadMem(64 bytes @ 0x08002140) -- Updating DA cache (64 bytes @ 0x08002140) -- Read from DA cache (60 bytes @ 0x08002140) - Data: 04 D1 80 21 2C 48 FF F7 47 FA 04 E0 4F F4 80 71 ...  returns 0x3C (0002ms, 1190ms total)
T2264 2159:831 JLINK_ReadMemEx(0x0800217C, 0x003C Bytes, ..., Flags = 0x02000000) -- CPU_ReadMem(64 bytes @ 0x08002180) -- Updating DA cache (64 bytes @ 0x08002180) -- Read from DA cache (60 bytes @ 0x0800217C) - Data: 40 68 40 F0 0C 00 20 49 48 60 28 46 FF F7 4C FF ...  returns 0x3C (0001ms, 1191ms total)
T2264 2159:832 JLINK_ReadMemEx(0x080021B8, 0x003C Bytes, ..., Flags = 0x02000000) -- CPU_ReadMem(64 bytes @ 0x080021C0) -- Updating DA cache (64 bytes @ 0x080021C0) -- Read from DA cache (60 bytes @ 0x080021B8) - Data: 11 49 48 60 11 48 40 68 4F F6 F3 71 08 40 0F 49 ...  returns 0x3C (0002ms, 1193ms total)
T2264 2159:834 JLINK_ReadMemEx(0x08002208, 0x003C Bytes, ..., Flags = 0x02000000) -- CPU_ReadMem(128 bytes @ 0x08002200) -- Updating DA cache (128 bytes @ 0x08002200) -- Read from DA cache (60 bytes @ 0x08002208) - Data: 49 00 50 EA C1 20 18 BF 04 20 4A 0D 18 BF 40 F0 ...  returns 0x3C (0002ms, 1195ms total)
T2264 2159:836 JLINK_ReadMemEx(0x08002244, 0x003C Bytes, ..., Flags = 0x02000000) -- Read from DA cache (60 bytes @ 0x08002244) - Data: 00 BF FF F7 39 FD FF F7 45 F8 FE F7 DC FF FF F7 ...  returns 0x3C (0000ms, 1195ms total)
T2D9C 2178:516 JLINK_ReadMemEx(0x08002240, 0x0002 Bytes, ..., Flags = 0x02000000) -- Read from DA cache (2 bytes @ 0x08002240) - Data: 8A B0  returns 0x02 (0000ms, 1195ms total)
T2D9C 2178:516 JLINK_Step() -- Read from DA cache (2 bytes @ 0x08002240) -- CPU_ReadMem(4 bytes @ 0xE000ED18) -- CPU_WriteMem(4 bytes @ 0xE000ED18) -- CPU_ReadMem(4 bytes @ 0xE000ED18) -- CPU_WriteMem(4 bytes @ 0xE000ED18) -- Simulated  returns 0x00 (0003ms, 1198ms total)
T2D9C 2178:519 JLINK_ReadReg(R15 (PC))  returns 0x08002242 (0000ms, 1198ms total)
T2D9C 2178:519 JLINK_ReadReg(XPSR)  returns 0x61000000 (0000ms, 1198ms total)
T2D9C 2178:519 JLINK_ReadReg(R0)  returns 0x20000070 (0000ms, 1198ms total)
T2D9C 2178:519 JLINK_ReadReg(R1)  returns 0x20000270 (0000ms, 1198ms total)
T2D9C 2178:519 JLINK_ReadReg(R2)  returns 0x20000270 (0000ms, 1198ms total)
T2D9C 2178:519 JLINK_ReadReg(R3)  returns 0x20000270 (0000ms, 1198ms total)
T2D9C 2178:519 JLINK_ReadReg(R4)  returns 0x00000000 (0000ms, 1198ms total)
T2D9C 2178:519 JLINK_ReadReg(R5)  returns 0x20000010 (0000ms, 1198ms total)
T2D9C 2178:519 JLINK_ReadReg(R6)  returns 0x00000000 (0000ms, 1198ms total)
T2D9C 2178:519 JLINK_ReadReg(R7)  returns 0x00000000 (0001ms, 1199ms total)
T2D9C 2178:520 JLINK_ReadReg(R8)  returns 0x00000000 (0000ms, 1199ms total)
T2D9C 2178:520 JLINK_ReadReg(R9)  returns 0x00000000 (0000ms, 1199ms total)
T2D9C 2178:520 JLINK_ReadReg(R10)  returns 0x08002E34 (0000ms, 1199ms total)
T2D9C 2178:520 JLINK_ReadReg(R11)  returns 0x00000000 (0000ms, 1199ms total)
T2D9C 2178:520 JLINK_ReadReg(R12)  returns 0x20000050 (0000ms, 1199ms total)
T2D9C 2178:520 JLINK_ReadReg(R13 (SP))  returns 0x20000648 (0000ms, 1199ms total)
T2D9C 2178:520 JLINK_ReadReg(R14)  returns 0x08000165 (0000ms, 1199ms total)
T2D9C 2178:520 JLINK_ReadReg(R15 (PC))  returns 0x08002242 (0000ms, 1199ms total)
T2D9C 2178:520 JLINK_ReadReg(XPSR)  returns 0x61000000 (0000ms, 1199ms total)
T2D9C 2178:520 JLINK_ReadReg(MSP)  returns 0x20000648 (0000ms, 1199ms total)
T2D9C 2178:520 JLINK_ReadReg(PSP)  returns 0x00000000 (0000ms, 1199ms total)
T2D9C 2178:520 JLINK_ReadReg(CFBP)  returns 0x00000000 (0000ms, 1199ms total)
T2264 2178:521 JLINK_ReadMemEx(0x00000000, 0x0002 Bytes, ..., Flags = 0x02000000) -- CPU_ReadMem(2 bytes @ 0x00000000) - Data: 00 80  returns 0x02 (0000ms, 1199ms total)
T2264 2178:521 JLINK_ReadMemEx(0x00000000, 0x0004 Bytes, ..., Flags = 0x02000000) -- CPU_ReadMem(4 bytes @ 0x00000000) - Data: 00 80 00 20  returns 0x04 (0001ms, 1200ms total)
T2264 2178:522 JLINK_ReadMemEx(0x2000065C, 0x0011 Bytes, ..., Flags = 0x02000000) -- CPU_ReadMem(17 bytes @ 0x2000065C) - Data: 70 02 00 20 70 02 00 20 70 02 00 20 00 00 00 00 ...  returns 0x11 (0001ms, 1201ms total)
T2264 2178:523 JLINK_ReadMemEx(0x20000650, 0x000A Bytes, ..., Flags = 0x02000000) -- CPU_ReadMem(10 bytes @ 0x20000650) - Data: 30 00 00 20 4F 01 00 08 70 00  returns 0x0A (0001ms, 1202ms total)
T2264 2178:524 JLINK_ReadMemU32(0xE0001004, 0x0001 Items, ...) - Data: E1 05 00 00  returns 0x01 (0000ms, 1202ms total)
T2264 2178:529 JLINK_ReadMemEx(0x0800223E, 0x0002 Bytes, ..., Flags = 0x02000000) -- Read from DA cache (2 bytes @ 0x0800223E) - Data: 00 00  returns 0x02 (0000ms, 1202ms total)
T2264 2178:529 JLINK_ReadMemEx(0x08002240, 0x003C Bytes, ..., Flags = 0x02000000) -- Read from DA cache (60 bytes @ 0x08002240) - Data: 8A B0 00 BF 00 BF FF F7 39 FD FF F7 45 F8 FE F7 ...  returns 0x3C (0000ms, 1202ms total)
T2D9C 2179:220 JLINK_ReadMemEx(0x08002242, 0x0002 Bytes, ..., Flags = 0x02000000) -- Read from DA cache (2 bytes @ 0x08002242) - Data: 00 BF  returns 0x02 (0000ms, 1202ms total)
T2D9C 2179:220 JLINK_Step() -- Read from DA cache (2 bytes @ 0x08002242) -- Simulated  returns 0x00 (0001ms, 1203ms total)
T2D9C 2179:221 JLINK_ReadReg(R15 (PC))  returns 0x08002244 (0000ms, 1203ms total)
T2D9C 2179:221 JLINK_ReadReg(XPSR)  returns 0x61000000 (0000ms, 1203ms total)
T2D9C 2179:221 JLINK_ReadReg(R0)  returns 0x20000070 (0000ms, 1203ms total)
T2D9C 2179:221 JLINK_ReadReg(R1)  returns 0x20000270 (0000ms, 1203ms total)
T2D9C 2179:221 JLINK_ReadReg(R2)  returns 0x20000270 (0000ms, 1203ms total)
T2D9C 2179:221 JLINK_ReadReg(R3)  returns 0x20000270 (0000ms, 1203ms total)
T2D9C 2179:221 JLINK_ReadReg(R4)  returns 0x00000000 (0001ms, 1204ms total)
T2D9C 2179:222 JLINK_ReadReg(R5)  returns 0x20000010 (0000ms, 1204ms total)
T2D9C 2179:222 JLINK_ReadReg(R6)  returns 0x00000000 (0000ms, 1204ms total)
T2D9C 2179:222 JLINK_ReadReg(R7)  returns 0x00000000 (0000ms, 1204ms total)
T2D9C 2179:222 JLINK_ReadReg(R8)  returns 0x00000000 (0000ms, 1204ms total)
T2D9C 2179:222 JLINK_ReadReg(R9)  returns 0x00000000 (0000ms, 1204ms total)
T2D9C 2179:222 JLINK_ReadReg(R10)  returns 0x08002E34 (0000ms, 1204ms total)
T2D9C 2179:222 JLINK_ReadReg(R11)  returns 0x00000000 (0000ms, 1204ms total)
T2D9C 2179:222 JLINK_ReadReg(R12)  returns 0x20000050 (0000ms, 1204ms total)
T2D9C 2179:222 JLINK_ReadReg(R13 (SP))  returns 0x20000648 (0000ms, 1204ms total)
T2D9C 2179:222 JLINK_ReadReg(R14)  returns 0x08000165 (0000ms, 1204ms total)
T2D9C 2179:222 JLINK_ReadReg(R15 (PC))  returns 0x08002244 (0000ms, 1204ms total)
T2D9C 2179:222 JLINK_ReadReg(XPSR)  returns 0x61000000 (0000ms, 1204ms total)
T2D9C 2179:222 JLINK_ReadReg(MSP)  returns 0x20000648 (0000ms, 1204ms total)
T2D9C 2179:222 JLINK_ReadReg(PSP)  returns 0x00000000 (0000ms, 1204ms total)
T2D9C 2179:222 JLINK_ReadReg(CFBP)  returns 0x00000000 (0000ms, 1204ms total)
T2264 2179:222 JLINK_ReadMemEx(0x00000000, 0x0002 Bytes, ..., Flags = 0x02000000) -- CPU_ReadMem(2 bytes @ 0x00000000) - Data: 00 80  returns 0x02 (0001ms, 1205ms total)
T2264 2179:223 JLINK_ReadMemEx(0x00000000, 0x0004 Bytes, ..., Flags = 0x02000000) -- CPU_ReadMem(4 bytes @ 0x00000000) - Data: 00 80 00 20  returns 0x04 (0000ms, 1205ms total)
T2264 2179:223 JLINK_ReadMemEx(0x2000065C, 0x0011 Bytes, ..., Flags = 0x02000000) -- CPU_ReadMem(17 bytes @ 0x2000065C) - Data: 70 02 00 20 70 02 00 20 70 02 00 20 00 00 00 00 ...  returns 0x11 (0001ms, 1206ms total)
T2264 2179:224 JLINK_ReadMemEx(0x20000650, 0x000A Bytes, ..., Flags = 0x02000000) -- CPU_ReadMem(10 bytes @ 0x20000650) - Data: 30 00 00 20 4F 01 00 08 70 00  returns 0x0A (0001ms, 1207ms total)
T2264 2179:225 JLINK_ReadMemU32(0xE0001004, 0x0001 Items, ...) - Data: E2 05 00 00  returns 0x01 (0000ms, 1207ms total)
T2264 2179:228 JLINK_ReadMemEx(0x08002242, 0x0002 Bytes, ..., Flags = 0x02000000) -- Read from DA cache (2 bytes @ 0x08002242) - Data: 00 BF  returns 0x02 (0000ms, 1207ms total)
T2264 2179:228 JLINK_ReadMemEx(0x08002244, 0x003C Bytes, ..., Flags = 0x02000000) -- Read from DA cache (60 bytes @ 0x08002244) - Data: 00 BF FF F7 39 FD FF F7 45 F8 FE F7 DC FF FF F7 ...  returns 0x3C (0000ms, 1207ms total)
T2D9C 2179:639 JLINK_ReadMemEx(0x08002244, 0x0002 Bytes, ..., Flags = 0x02000000) -- Read from DA cache (2 bytes @ 0x08002244) - Data: 00 BF  returns 0x02 (0000ms, 1207ms total)
T2D9C 2179:639 JLINK_Step() -- Read from DA cache (2 bytes @ 0x08002244) -- Simulated  returns 0x00 (0000ms, 1207ms total)
T2D9C 2179:639 JLINK_ReadReg(R15 (PC))  returns 0x08002246 (0000ms, 1207ms total)
T2D9C 2179:639 JLINK_ReadReg(XPSR)  returns 0x61000000 (0000ms, 1207ms total)
T2D9C 2179:639 JLINK_ReadReg(R0)  returns 0x20000070 (0000ms, 1207ms total)
T2D9C 2179:639 JLINK_ReadReg(R1)  returns 0x20000270 (0000ms, 1207ms total)
T2D9C 2179:639 JLINK_ReadReg(R2)  returns 0x20000270 (0000ms, 1207ms total)
T2D9C 2179:639 JLINK_ReadReg(R3)  returns 0x20000270 (0000ms, 1207ms total)
T2D9C 2179:639 JLINK_ReadReg(R4)  returns 0x00000000 (0000ms, 1207ms total)
T2D9C 2179:639 JLINK_ReadReg(R5)  returns 0x20000010 (0001ms, 1208ms total)
T2D9C 2179:640 JLINK_ReadReg(R6)  returns 0x00000000 (0000ms, 1208ms total)
T2D9C 2179:640 JLINK_ReadReg(R7)  returns 0x00000000 (0000ms, 1208ms total)
T2D9C 2179:640 JLINK_ReadReg(R8)  returns 0x00000000 (0000ms, 1208ms total)
T2D9C 2179:640 JLINK_ReadReg(R9)  returns 0x00000000 (0000ms, 1208ms total)
T2D9C 2179:640 JLINK_ReadReg(R10)  returns 0x08002E34 (0000ms, 1208ms total)
T2D9C 2179:640 JLINK_ReadReg(R11)  returns 0x00000000 (0000ms, 1208ms total)
T2D9C 2179:640 JLINK_ReadReg(R12)  returns 0x20000050 (0000ms, 1208ms total)
T2D9C 2179:640 JLINK_ReadReg(R13 (SP))  returns 0x20000648 (0000ms, 1208ms total)
T2D9C 2179:640 JLINK_ReadReg(R14)  returns 0x08000165 (0000ms, 1208ms total)
T2D9C 2179:640 JLINK_ReadReg(R15 (PC))  returns 0x08002246 (0000ms, 1208ms total)
T2D9C 2179:640 JLINK_ReadReg(XPSR)  returns 0x61000000 (0000ms, 1208ms total)
T2D9C 2179:640 JLINK_ReadReg(MSP)  returns 0x20000648 (0000ms, 1208ms total)
T2D9C 2179:640 JLINK_ReadReg(PSP)  returns 0x00000000 (0000ms, 1208ms total)
T2D9C 2179:640 JLINK_ReadReg(CFBP)  returns 0x00000000 (0000ms, 1208ms total)
T2264 2179:640 JLINK_ReadMemEx(0x00000000, 0x0002 Bytes, ..., Flags = 0x02000000) -- CPU_ReadMem(2 bytes @ 0x00000000) - Data: 00 80  returns 0x02 (0001ms, 1209ms total)
T2264 2179:641 JLINK_ReadMemEx(0x00000000, 0x0004 Bytes, ..., Flags = 0x02000000) -- CPU_ReadMem(4 bytes @ 0x00000000) - Data: 00 80 00 20  returns 0x04 (0001ms, 1210ms total)
T2264 2179:642 JLINK_ReadMemEx(0x2000065C, 0x0011 Bytes, ..., Flags = 0x02000000) -- CPU_ReadMem(17 bytes @ 0x2000065C) - Data: 70 02 00 20 70 02 00 20 70 02 00 20 00 00 00 00 ...  returns 0x11 (0001ms, 1211ms total)
T2264 2179:643 JLINK_ReadMemEx(0x20000650, 0x000A Bytes, ..., Flags = 0x02000000) -- CPU_ReadMem(10 bytes @ 0x20000650) - Data: 30 00 00 20 4F 01 00 08 70 00  returns 0x0A (0001ms, 1212ms total)
T2264 2179:644 JLINK_ReadMemU32(0xE0001004, 0x0001 Items, ...) - Data: E3 05 00 00  returns 0x01 (0000ms, 1212ms total)
T2264 2179:649 JLINK_ReadMemEx(0x08002246, 0x0002 Bytes, ..., Flags = 0x02000000) -- Read from DA cache (2 bytes @ 0x08002246) - Data: FF F7  returns 0x02 (0000ms, 1212ms total)
T2264 2179:649 JLINK_ReadMemEx(0x08002248, 0x003C Bytes, ..., Flags = 0x02000000) -- CPU_ReadMem(64 bytes @ 0x08002280) -- Updating DA cache (64 bytes @ 0x08002280) -- Read from DA cache (60 bytes @ 0x08002248) - Data: 39 FD FF F7 45 F8 FE F7 DC FF FF F7 87 F8 FF F7 ...  returns 0x3C (0001ms, 1213ms total)
T2D9C 2179:813 JLINK_ReadMemEx(0x08002246, 0x0002 Bytes, ..., Flags = 0x02000000) -- Read from DA cache (2 bytes @ 0x08002246) - Data: FF F7  returns 0x02 (0000ms, 1213ms total)
T2D9C 2179:813 JLINK_SetBPEx(Addr = 0x0800224A, Type = 0xFFFFFFF2)  returns 0x00000003 (0000ms, 1213ms total)
T2D9C 2179:813 JLINK_SetBPEx(Addr = 0x080022BC, Type = 0xFFFFFFF2)  returns 0x00000004 (0000ms, 1213ms total)
T2D9C 2179:813 JLINK_Go() -- CPU_WriteMem(4 bytes @ 0xE0002000) -- CPU_WriteMem(4 bytes @ 0xE0002000) -- CPU_ReadMem(4 bytes @ 0xE0001000) -- CPU_WriteMem(4 bytes @ 0xE0002008) -- CPU_WriteMem(4 bytes @ 0xE0001004) (0005ms, 1218ms total)
T2D9C 2179:918 JLINK_IsHalted()  returns FALSE (0000ms, 1218ms total)
T2D9C 2180:019 JLINK_IsHalted()  returns TRUE (0005ms, 1223ms total)
T2D9C 2180:024 JLINK_Halt()  returns 0x00 (0000ms, 1218ms total)
T2D9C 2180:024 JLINK_IsHalted()  returns TRUE (0000ms, 1218ms total)
T2D9C 2180:024 JLINK_IsHalted()  returns TRUE (0000ms, 1218ms total)
T2D9C 2180:024 JLINK_IsHalted()  returns TRUE (0000ms, 1218ms total)
T2D9C 2180:024 JLINK_ReadReg(R15 (PC))  returns 0x0800224A (0000ms, 1218ms total)
T2D9C 2180:024 JLINK_ReadReg(XPSR)  returns 0x61000000 (0000ms, 1218ms total)
T2D9C 2180:024 JLINK_ClrBPEx(BPHandle = 0x00000003)  returns 0x00 (0000ms, 1218ms total)
T2D9C 2180:024 JLINK_ClrBPEx(BPHandle = 0x00000004)  returns 0x00 (0000ms, 1218ms total)
T2D9C 2180:024 JLINK_ReadMemU32(0xE000ED30, 0x0001 Items, ...) -- CPU_ReadMem(4 bytes @ 0xE000ED30) - Data: 0B 00 00 00  returns 0x01 (0000ms, 1218ms total)
T2D9C 2180:024 JLINK_ReadMemU32(0xE0001028, 0x0001 Items, ...) -- CPU_ReadMem(4 bytes @ 0xE0001028) - Data: 00 00 00 00  returns 0x01 (0001ms, 1219ms total)
T2D9C 2180:025 JLINK_ReadMemU32(0xE0001038, 0x0001 Items, ...) -- CPU_ReadMem(4 bytes @ 0xE0001038) - Data: 00 02 00 00  returns 0x01 (0001ms, 1220ms total)
T2D9C 2180:026 JLINK_ReadMemU32(0xE0001048, 0x0001 Items, ...) -- CPU_ReadMem(4 bytes @ 0xE0001048) - Data: 00 00 00 00  returns 0x01 (0000ms, 1220ms total)
T2D9C 2180:026 JLINK_ReadMemU32(0xE0001058, 0x0001 Items, ...) -- CPU_ReadMem(4 bytes @ 0xE0001058) - Data: 00 00 00 00  returns 0x01 (0001ms, 1221ms total)
T2D9C 2180:027 JLINK_ReadReg(R0)  returns 0x400B0000 (0000ms, 1221ms total)
T2D9C 2180:027 JLINK_ReadReg(R1)  returns 0x00000100 (0000ms, 1221ms total)
T2D9C 2180:027 JLINK_ReadReg(R2)  returns 0x0000FA7F (0000ms, 1221ms total)
T2D9C 2180:027 JLINK_ReadReg(R3)  returns 0x00000100 (0000ms, 1221ms total)
T2D9C 2180:027 JLINK_ReadReg(R4)  returns 0x00000000 (0000ms, 1221ms total)
T2D9C 2180:027 JLINK_ReadReg(R5)  returns 0x20000010 (0000ms, 1221ms total)
T2D9C 2180:027 JLINK_ReadReg(R6)  returns 0x00000000 (0000ms, 1221ms total)
T2D9C 2180:027 JLINK_ReadReg(R7)  returns 0x00000000 (0000ms, 1221ms total)
T2D9C 2180:027 JLINK_ReadReg(R8)  returns 0x00000000 (0000ms, 1221ms total)
T2D9C 2180:027 JLINK_ReadReg(R9)  returns 0x00000000 (0000ms, 1221ms total)
T2D9C 2180:027 JLINK_ReadReg(R10)  returns 0x08002E34 (0000ms, 1221ms total)
T2D9C 2180:027 JLINK_ReadReg(R11)  returns 0x00000000 (0000ms, 1221ms total)
T2D9C 2180:027 JLINK_ReadReg(R12)  returns 0x00000000 (0000ms, 1221ms total)
T2D9C 2180:027 JLINK_ReadReg(R13 (SP))  returns 0x20000648 (0000ms, 1221ms total)
T2D9C 2180:027 JLINK_ReadReg(R14)  returns 0x080021F5 (0000ms, 1221ms total)
T2D9C 2180:027 JLINK_ReadReg(R15 (PC))  returns 0x0800224A (0000ms, 1221ms total)
T2D9C 2180:027 JLINK_ReadReg(XPSR)  returns 0x61000000 (0000ms, 1221ms total)
T2D9C 2180:027 JLINK_ReadReg(MSP)  returns 0x20000648 (0000ms, 1221ms total)
T2D9C 2180:027 JLINK_ReadReg(PSP)  returns 0x00000000 (0000ms, 1221ms total)
T2D9C 2180:027 JLINK_ReadReg(CFBP)  returns 0x00000000 (0000ms, 1221ms total)
T2264 2180:027 JLINK_ReadMemEx(0x00000000, 0x0002 Bytes, ..., Flags = 0x02000000) -- CPU_ReadMem(2 bytes @ 0x00000000) - Data: 00 80  returns 0x02 (0001ms, 1222ms total)
T2264 2180:028 JLINK_ReadMemEx(0x00000000, 0x0004 Bytes, ..., Flags = 0x02000000) -- CPU_ReadMem(4 bytes @ 0x00000000) - Data: 00 80 00 20  returns 0x04 (0001ms, 1223ms total)
T2264 2180:029 JLINK_ReadMemEx(0x2000065C, 0x0011 Bytes, ..., Flags = 0x02000000) -- CPU_ReadMem(17 bytes @ 0x2000065C) - Data: 70 02 00 20 70 02 00 20 70 02 00 20 00 00 00 00 ...  returns 0x11 (0001ms, 1224ms total)
T2264 2180:030 JLINK_ReadMemEx(0x20000650, 0x000A Bytes, ..., Flags = 0x02000000) -- CPU_ReadMem(10 bytes @ 0x20000650) - Data: 30 00 00 20 4F 01 00 08 70 00  returns 0x0A (0001ms, 1225ms total)
T2264 2180:031 JLINK_ReadMemU32(0xE0001004, 0x0001 Items, ...) -- CPU_ReadMem(4 bytes @ 0xE0001004) - Data: 7B 03 18 00  returns 0x01 (0000ms, 1225ms total)
T2264 2180:037 JLINK_ReadMemEx(0x08002246, 0x0002 Bytes, ..., Flags = 0x02000000) -- CPU_ReadMem(64 bytes @ 0x08002240) -- Updating DA cache (64 bytes @ 0x08002240) -- Read from DA cache (2 bytes @ 0x08002246) - Data: FF F7  returns 0x02 (0001ms, 1226ms total)
T2264 2180:038 JLINK_ReadMemEx(0x08002248, 0x003C Bytes, ..., Flags = 0x02000000) -- CPU_ReadMem(64 bytes @ 0x08002280) -- Updating DA cache (64 bytes @ 0x08002280) -- Read from DA cache (60 bytes @ 0x08002248) - Data: 39 FD FF F7 45 F8 FE F7 DC FF FF F7 87 F8 FF F7 ...  returns 0x3C (0002ms, 1228ms total)
T2D9C 2180:115 JLINK_ReadMemEx(0x0800224A, 0x0002 Bytes, ..., Flags = 0x02000000) -- Read from DA cache (2 bytes @ 0x0800224A) - Data: FF F7  returns 0x02 (0000ms, 1228ms total)
T2D9C 2180:115 JLINK_SetBPEx(Addr = 0x0800224E, Type = 0xFFFFFFF2)  returns 0x00000005 (0000ms, 1228ms total)
T2D9C 2180:115 JLINK_SetBPEx(Addr = 0x080022BC, Type = 0xFFFFFFF2)  returns 0x00000006 (0000ms, 1228ms total)
T2D9C 2180:115 JLINK_Go() -- CPU_WriteMem(4 bytes @ 0xE0002000) -- CPU_WriteMem(4 bytes @ 0xE0002000) -- CPU_ReadMem(4 bytes @ 0xE0001000) -- CPU_WriteMem(4 bytes @ 0xE0002008) (0003ms, 1231ms total)
T2D9C 2180:218 JLINK_IsHalted()  returns TRUE (0004ms, 1235ms total)
T2D9C 2180:222 JLINK_Halt()  returns 0x00 (0000ms, 1231ms total)
T2D9C 2180:222 JLINK_IsHalted()  returns TRUE (0000ms, 1231ms total)
T2D9C 2180:222 JLINK_IsHalted()  returns TRUE (0000ms, 1231ms total)
T2D9C 2180:222 JLINK_IsHalted()  returns TRUE (0000ms, 1231ms total)
T2D9C 2180:222 JLINK_ReadReg(R15 (PC))  returns 0x0800224E (0000ms, 1231ms total)
T2D9C 2180:222 JLINK_ReadReg(XPSR)  returns 0x41000000 (0000ms, 1231ms total)
T2D9C 2180:222 JLINK_ClrBPEx(BPHandle = 0x00000005)  returns 0x00 (0000ms, 1231ms total)
T2D9C 2180:222 JLINK_ClrBPEx(BPHandle = 0x00000006)  returns 0x00 (0000ms, 1231ms total)
T2D9C 2180:223 JLINK_ReadMemU32(0xE000ED30, 0x0001 Items, ...) -- CPU_ReadMem(4 bytes @ 0xE000ED30) - Data: 0B 00 00 00  returns 0x01 (0000ms, 1231ms total)
T2D9C 2180:223 JLINK_ReadMemU32(0xE0001028, 0x0001 Items, ...) -- CPU_ReadMem(4 bytes @ 0xE0001028) - Data: 00 00 00 00  returns 0x01 (0001ms, 1232ms total)
T2D9C 2180:224 JLINK_ReadMemU32(0xE0001038, 0x0001 Items, ...) -- CPU_ReadMem(4 bytes @ 0xE0001038) - Data: 00 02 00 00  returns 0x01 (0000ms, 1232ms total)
T2D9C 2180:224 JLINK_ReadMemU32(0xE0001048, 0x0001 Items, ...) -- CPU_ReadMem(4 bytes @ 0xE0001048) - Data: 00 00 00 00  returns 0x01 (0001ms, 1233ms total)
T2D9C 2180:225 JLINK_ReadMemU32(0xE0001058, 0x0001 Items, ...) -- CPU_ReadMem(4 bytes @ 0xE0001058) - Data: 00 00 00 00  returns 0x01 (0001ms, 1234ms total)
T2D9C 2180:226 JLINK_ReadReg(R0)  returns 0x20000628 (0000ms, 1234ms total)
T2D9C 2180:226 JLINK_ReadReg(R1)  returns 0x00000000 (0000ms, 1234ms total)
T2D9C 2180:226 JLINK_ReadReg(R2)  returns 0xF1FF0000 (0000ms, 1234ms total)
T2D9C 2180:226 JLINK_ReadReg(R3)  returns 0x00000000 (0000ms, 1234ms total)
T2D9C 2180:226 JLINK_ReadReg(R4)  returns 0x00000000 (0000ms, 1234ms total)
T2D9C 2180:226 JLINK_ReadReg(R5)  returns 0x20000010 (0000ms, 1234ms total)
T2D9C 2180:226 JLINK_ReadReg(R6)  returns 0x00000000 (0000ms, 1234ms total)
T2D9C 2180:226 JLINK_ReadReg(R7)  returns 0x00000000 (0000ms, 1234ms total)
T2D9C 2180:226 JLINK_ReadReg(R8)  returns 0x00000000 (0000ms, 1234ms total)
T2D9C 2180:226 JLINK_ReadReg(R9)  returns 0x00000000 (0000ms, 1234ms total)
T2D9C 2180:226 JLINK_ReadReg(R10)  returns 0x08002E34 (0000ms, 1234ms total)
T2D9C 2180:226 JLINK_ReadReg(R11)  returns 0x00000000 (0000ms, 1234ms total)
T2D9C 2180:226 JLINK_ReadReg(R12)  returns 0x00000000 (0000ms, 1234ms total)
T2D9C 2180:226 JLINK_ReadReg(R13 (SP))  returns 0x20000648 (0000ms, 1234ms total)
T2D9C 2180:226 JLINK_ReadReg(R14)  returns 0x080012F1 (0000ms, 1234ms total)
T2D9C 2180:226 JLINK_ReadReg(R15 (PC))  returns 0x0800224E (0000ms, 1234ms total)
T2D9C 2180:226 JLINK_ReadReg(XPSR)  returns 0x41000000 (0000ms, 1234ms total)
T2D9C 2180:226 JLINK_ReadReg(MSP)  returns 0x20000648 (0000ms, 1234ms total)
T2D9C 2180:226 JLINK_ReadReg(PSP)  returns 0x00000000 (0000ms, 1234ms total)
T2D9C 2180:226 JLINK_ReadReg(CFBP)  returns 0x00000000 (0000ms, 1234ms total)
T2264 2180:226 JLINK_ReadMemEx(0x00000000, 0x0002 Bytes, ..., Flags = 0x02000000) -- CPU_ReadMem(2 bytes @ 0x00000000) - Data: 00 80  returns 0x02 (0002ms, 1236ms total)
T2264 2180:228 JLINK_ReadMemEx(0x00000000, 0x0004 Bytes, ..., Flags = 0x02000000) -- CPU_ReadMem(4 bytes @ 0x00000000) - Data: 00 80 00 20  returns 0x04 (0000ms, 1236ms total)
T2264 2180:228 JLINK_ReadMemEx(0x2000065C, 0x0011 Bytes, ..., Flags = 0x02000000) -- CPU_ReadMem(17 bytes @ 0x2000065C) - Data: 70 02 00 20 70 02 00 20 70 02 00 20 00 00 00 00 ...  returns 0x11 (0001ms, 1237ms total)
T2264 2180:229 JLINK_ReadMemEx(0x20000650, 0x000A Bytes, ..., Flags = 0x02000000) -- CPU_ReadMem(10 bytes @ 0x20000650) - Data: 30 00 00 20 4F 01 00 08 70 00  returns 0x0A (0001ms, 1238ms total)
T2264 2180:230 JLINK_ReadMemU32(0xE0001004, 0x0001 Items, ...) -- CPU_ReadMem(4 bytes @ 0xE0001004) - Data: 11 04 18 00  returns 0x01 (0000ms, 1238ms total)
T2264 2180:235 JLINK_ReadMemEx(0x08002246, 0x0002 Bytes, ..., Flags = 0x02000000) -- CPU_ReadMem(64 bytes @ 0x08002240) -- Updating DA cache (64 bytes @ 0x08002240) -- Read from DA cache (2 bytes @ 0x08002246) - Data: FF F7  returns 0x02 (0001ms, 1239ms total)
T2264 2180:236 JLINK_ReadMemEx(0x08002248, 0x003C Bytes, ..., Flags = 0x02000000) -- CPU_ReadMem(64 bytes @ 0x08002280) -- Updating DA cache (64 bytes @ 0x08002280) -- Read from DA cache (60 bytes @ 0x08002248) - Data: 39 FD FF F7 45 F8 FE F7 DC FF FF F7 87 F8 FF F7 ...  returns 0x3C (0002ms, 1241ms total)
T2D9C 2180:706 JLINK_ReadMemEx(0x0800224E, 0x0002 Bytes, ..., Flags = 0x02000000) -- Read from DA cache (2 bytes @ 0x0800224E) - Data: FE F7  returns 0x02 (0000ms, 1241ms total)
T2D9C 2180:706 JLINK_SetBPEx(Addr = 0x08002252, Type = 0xFFFFFFF2)  returns 0x00000007 (0000ms, 1241ms total)
T2D9C 2180:706 JLINK_SetBPEx(Addr = 0x080022BC, Type = 0xFFFFFFF2)  returns 0x00000008 (0000ms, 1241ms total)
T2D9C 2180:706 JLINK_Go() -- CPU_WriteMem(4 bytes @ 0xE0002000) -- CPU_WriteMem(4 bytes @ 0xE0002000) -- CPU_ReadMem(4 bytes @ 0xE0001000) -- CPU_WriteMem(4 bytes @ 0xE0002008) (0003ms, 1244ms total)
T2D9C 2180:810 JLINK_IsHalted()  returns TRUE (0005ms, 1249ms total)
T2D9C 2180:815 JLINK_Halt()  returns 0x00 (0000ms, 1244ms total)
T2D9C 2180:815 JLINK_IsHalted()  returns TRUE (0000ms, 1244ms total)
T2D9C 2180:815 JLINK_IsHalted()  returns TRUE (0000ms, 1244ms total)
T2D9C 2180:815 JLINK_IsHalted()  returns TRUE (0000ms, 1244ms total)
T2D9C 2180:815 JLINK_ReadReg(R15 (PC))  returns 0x08002252 (0000ms, 1244ms total)
T2D9C 2180:815 JLINK_ReadReg(XPSR)  returns 0x01000000 (0000ms, 1244ms total)
T2D9C 2180:815 JLINK_ClrBPEx(BPHandle = 0x00000007)  returns 0x00 (0000ms, 1244ms total)
T2D9C 2180:815 JLINK_ClrBPEx(BPHandle = 0x00000008)  returns 0x00 (0000ms, 1244ms total)
T2D9C 2180:815 JLINK_ReadMemU32(0xE000ED30, 0x0001 Items, ...) -- CPU_ReadMem(4 bytes @ 0xE000ED30) - Data: 0B 00 00 00  returns 0x01 (0000ms, 1244ms total)
T2D9C 2180:815 JLINK_ReadMemU32(0xE0001028, 0x0001 Items, ...) -- CPU_ReadMem(4 bytes @ 0xE0001028) - Data: 00 00 00 00  returns 0x01 (0001ms, 1245ms total)
T2D9C 2180:816 JLINK_ReadMemU32(0xE0001038, 0x0001 Items, ...) -- CPU_ReadMem(4 bytes @ 0xE0001038) - Data: 00 02 00 00  returns 0x01 (0001ms, 1246ms total)
T2D9C 2180:817 JLINK_ReadMemU32(0xE0001048, 0x0001 Items, ...) -- CPU_ReadMem(4 bytes @ 0xE0001048) - Data: 00 00 00 00  returns 0x01 (0001ms, 1247ms total)
T2D9C 2180:818 JLINK_ReadMemU32(0xE0001058, 0x0001 Items, ...) -- CPU_ReadMem(4 bytes @ 0xE0001058) - Data: 00 00 00 00  returns 0x01 (0000ms, 1247ms total)
T2D9C 2180:818 JLINK_ReadReg(R0)  returns 0x00000071 (0000ms, 1247ms total)
T2D9C 2180:818 JLINK_ReadReg(R1)  returns 0x00000001 (0000ms, 1247ms total)
T2D9C 2180:818 JLINK_ReadReg(R2)  returns 0x40088000 (0000ms, 1247ms total)
T2D9C 2180:818 JLINK_ReadReg(R3)  returns 0x00000000 (0000ms, 1247ms total)
T2D9C 2180:818 JLINK_ReadReg(R4)  returns 0x00000000 (0000ms, 1247ms total)
T2D9C 2180:818 JLINK_ReadReg(R5)  returns 0x20000010 (0000ms, 1247ms total)
T2D9C 2180:818 JLINK_ReadReg(R6)  returns 0x00000000 (0000ms, 1247ms total)
T2D9C 2180:818 JLINK_ReadReg(R7)  returns 0x00000000 (0000ms, 1247ms total)
T2D9C 2180:818 JLINK_ReadReg(R8)  returns 0x00000000 (0000ms, 1247ms total)
T2D9C 2180:818 JLINK_ReadReg(R9)  returns 0x00000000 (0001ms, 1248ms total)
T2D9C 2180:819 JLINK_ReadReg(R10)  returns 0x08002E34 (0000ms, 1248ms total)
T2D9C 2180:819 JLINK_ReadReg(R11)  returns 0x00000000 (0000ms, 1248ms total)
T2D9C 2180:819 JLINK_ReadReg(R12)  returns 0x00000000 (0000ms, 1248ms total)
T2D9C 2180:819 JLINK_ReadReg(R13 (SP))  returns 0x20000648 (0000ms, 1248ms total)
T2D9C 2180:819 JLINK_ReadReg(R14)  returns 0x08001225 (0000ms, 1248ms total)
T2D9C 2180:819 JLINK_ReadReg(R15 (PC))  returns 0x08002252 (0000ms, 1248ms total)
T2D9C 2180:819 JLINK_ReadReg(XPSR)  returns 0x01000000 (0000ms, 1248ms total)
T2D9C 2180:819 JLINK_ReadReg(MSP)  returns 0x20000648 (0000ms, 1248ms total)
T2D9C 2180:819 JLINK_ReadReg(PSP)  returns 0x00000000 (0000ms, 1248ms total)
T2D9C 2180:819 JLINK_ReadReg(CFBP)  returns 0x00000000 (0000ms, 1248ms total)
T2264 2180:819 JLINK_ReadMemEx(0x00000000, 0x0002 Bytes, ..., Flags = 0x02000000) -- CPU_ReadMem(2 bytes @ 0x00000000) - Data: 00 80  returns 0x02 (0001ms, 1249ms total)
T2264 2180:820 JLINK_ReadMemEx(0x00000000, 0x0004 Bytes, ..., Flags = 0x02000000) -- CPU_ReadMem(4 bytes @ 0x00000000) - Data: 00 80 00 20  returns 0x04 (0001ms, 1250ms total)
T2264 2180:821 JLINK_ReadMemEx(0x2000065C, 0x0011 Bytes, ..., Flags = 0x02000000) -- CPU_ReadMem(17 bytes @ 0x2000065C) - Data: 70 02 00 20 70 02 00 20 70 02 00 20 00 00 00 00 ...  returns 0x11 (0000ms, 1250ms total)
T2264 2180:821 JLINK_ReadMemEx(0x20000650, 0x000A Bytes, ..., Flags = 0x02000000) -- CPU_ReadMem(10 bytes @ 0x20000650) - Data: 30 00 00 20 4F 01 00 08 70 00  returns 0x0A (0001ms, 1251ms total)
T2264 2180:822 JLINK_ReadMemU32(0xE0001004, 0x0001 Items, ...) -- CPU_ReadMem(4 bytes @ 0xE0001004) - Data: DD 04 18 00  returns 0x01 (0001ms, 1252ms total)
T2264 2180:826 JLINK_ReadMemEx(0x0800224E, 0x0002 Bytes, ..., Flags = 0x02000000) -- CPU_ReadMem(64 bytes @ 0x08002240) -- Updating DA cache (64 bytes @ 0x08002240) -- Read from DA cache (2 bytes @ 0x0800224E) - Data: FE F7  returns 0x02 (0002ms, 1254ms total)
T2264 2180:828 JLINK_ReadMemEx(0x08002250, 0x003C Bytes, ..., Flags = 0x02000000) -- CPU_ReadMem(64 bytes @ 0x08002280) -- Updating DA cache (64 bytes @ 0x08002280) -- Read from DA cache (60 bytes @ 0x08002250) - Data: DC FF FF F7 87 F8 FF F7 31 FD FF F7 A7 F8 FF F7 ...  returns 0x3C (0001ms, 1255ms total)
T2D9C 2181:063 JLINK_ReadMemEx(0x08002252, 0x0002 Bytes, ..., Flags = 0x02000000) -- Read from DA cache (2 bytes @ 0x08002252) - Data: FF F7  returns 0x02 (0000ms, 1255ms total)
T2D9C 2181:063 JLINK_SetBPEx(Addr = 0x08002256, Type = 0xFFFFFFF2)  returns 0x00000009 (0000ms, 1255ms total)
T2D9C 2181:063 JLINK_SetBPEx(Addr = 0x080022BC, Type = 0xFFFFFFF2)  returns 0x0000000A (0000ms, 1255ms total)
T2D9C 2181:063 JLINK_Go() -- CPU_WriteMem(4 bytes @ 0xE0002000) -- CPU_WriteMem(4 bytes @ 0xE0002000) -- CPU_ReadMem(4 bytes @ 0xE0001000) -- CPU_WriteMem(4 bytes @ 0xE0002008) (0003ms, 1258ms total)
T2D9C 2181:166 JLINK_IsHalted()  returns TRUE (0005ms, 1263ms total)
T2D9C 2181:171 JLINK_Halt()  returns 0x00 (0000ms, 1258ms total)
T2D9C 2181:171 JLINK_IsHalted()  returns TRUE (0000ms, 1258ms total)
T2D9C 2181:171 JLINK_IsHalted()  returns TRUE (0000ms, 1258ms total)
T2D9C 2181:171 JLINK_IsHalted()  returns TRUE (0000ms, 1258ms total)
T2D9C 2181:171 JLINK_ReadReg(R15 (PC))  returns 0x08002256 (0000ms, 1258ms total)
T2D9C 2181:171 JLINK_ReadReg(XPSR)  returns 0x81000000 (0000ms, 1258ms total)
T2D9C 2181:171 JLINK_ClrBPEx(BPHandle = 0x00000009)  returns 0x00 (0000ms, 1258ms total)
T2D9C 2181:171 JLINK_ClrBPEx(BPHandle = 0x0000000A)  returns 0x00 (0000ms, 1258ms total)
T2D9C 2181:171 JLINK_ReadMemU32(0xE000ED30, 0x0001 Items, ...) -- CPU_ReadMem(4 bytes @ 0xE000ED30) - Data: 0B 00 00 00  returns 0x01 (0000ms, 1258ms total)
T2D9C 2181:171 JLINK_ReadMemU32(0xE0001028, 0x0001 Items, ...) -- CPU_ReadMem(4 bytes @ 0xE0001028) - Data: 00 00 00 00  returns 0x01 (0001ms, 1259ms total)
T2D9C 2181:172 JLINK_ReadMemU32(0xE0001038, 0x0001 Items, ...) -- CPU_ReadMem(4 bytes @ 0xE0001038) - Data: 00 02 00 00  returns 0x01 (0002ms, 1261ms total)
T2D9C 2181:174 JLINK_ReadMemU32(0xE0001048, 0x0001 Items, ...) -- CPU_ReadMem(4 bytes @ 0xE0001048) - Data: 00 00 00 00  returns 0x01 (0000ms, 1261ms total)
T2D9C 2181:174 JLINK_ReadMemU32(0xE0001058, 0x0001 Items, ...) -- CPU_ReadMem(4 bytes @ 0xE0001058) - Data: 00 00 00 00  returns 0x01 (0001ms, 1262ms total)
T2D9C 2181:175 JLINK_ReadReg(R0)  returns 0x400B8000 (0000ms, 1262ms total)
T2D9C 2181:175 JLINK_ReadReg(R1)  returns 0x00010001 (0000ms, 1262ms total)
T2D9C 2181:175 JLINK_ReadReg(R2)  returns 0x00000000 (0000ms, 1262ms total)
T2D9C 2181:175 JLINK_ReadReg(R3)  returns 0x00010100 (0000ms, 1262ms total)
T2D9C 2181:175 JLINK_ReadReg(R4)  returns 0x00000000 (0000ms, 1262ms total)
T2D9C 2181:175 JLINK_ReadReg(R5)  returns 0x20000010 (0000ms, 1262ms total)
T2D9C 2181:175 JLINK_ReadReg(R6)  returns 0x00000000 (0000ms, 1262ms total)
T2D9C 2181:175 JLINK_ReadReg(R7)  returns 0x00000000 (0000ms, 1262ms total)
T2D9C 2181:175 JLINK_ReadReg(R8)  returns 0x00000000 (0000ms, 1262ms total)
T2D9C 2181:175 JLINK_ReadReg(R9)  returns 0x00000000 (0000ms, 1262ms total)
T2D9C 2181:175 JLINK_ReadReg(R10)  returns 0x08002E34 (0000ms, 1262ms total)
T2D9C 2181:175 JLINK_ReadReg(R11)  returns 0x00000000 (0000ms, 1262ms total)
T2D9C 2181:175 JLINK_ReadReg(R12)  returns 0x00000000 (0000ms, 1262ms total)
T2D9C 2181:175 JLINK_ReadReg(R13 (SP))  returns 0x20000648 (0000ms, 1262ms total)
T2D9C 2181:175 JLINK_ReadReg(R14)  returns 0x00000010 (0000ms, 1262ms total)
T2D9C 2181:175 JLINK_ReadReg(R15 (PC))  returns 0x08002256 (0000ms, 1262ms total)
T2D9C 2181:175 JLINK_ReadReg(XPSR)  returns 0x81000000 (0000ms, 1262ms total)
T2D9C 2181:175 JLINK_ReadReg(MSP)  returns 0x20000648 (0000ms, 1262ms total)
T2D9C 2181:175 JLINK_ReadReg(PSP)  returns 0x00000000 (0000ms, 1262ms total)
T2D9C 2181:175 JLINK_ReadReg(CFBP)  returns 0x00000000 (0000ms, 1262ms total)
T2264 2181:175 JLINK_ReadMemEx(0x00000000, 0x0002 Bytes, ..., Flags = 0x02000000) -- CPU_ReadMem(2 bytes @ 0x00000000) - Data: 00 80  returns 0x02 (0000ms, 1262ms total)
T2264 2181:175 JLINK_ReadMemEx(0x00000000, 0x0004 Bytes, ..., Flags = 0x02000000) -- CPU_ReadMem(4 bytes @ 0x00000000) - Data: 00 80 00 20  returns 0x04 (0001ms, 1263ms total)
T2264 2181:176 JLINK_ReadMemEx(0x2000065C, 0x0011 Bytes, ..., Flags = 0x02000000) -- CPU_ReadMem(17 bytes @ 0x2000065C) - Data: 70 02 00 20 70 02 00 20 70 02 00 20 00 00 00 00 ...  returns 0x11 (0001ms, 1264ms total)
T2264 2181:177 JLINK_ReadMemEx(0x20000650, 0x000A Bytes, ..., Flags = 0x02000000) -- CPU_ReadMem(10 bytes @ 0x20000650) - Data: 30 00 00 20 4F 01 00 08 70 00  returns 0x0A (0001ms, 1265ms total)
T2264 2181:178 JLINK_ReadMemU32(0xE0001004, 0x0001 Items, ...) -- CPU_ReadMem(4 bytes @ 0xE0001004) - Data: 78 06 18 00  returns 0x01 (0001ms, 1266ms total)
T2264 2181:183 JLINK_ReadMemEx(0x0800224E, 0x0002 Bytes, ..., Flags = 0x02000000) -- CPU_ReadMem(64 bytes @ 0x08002240) -- Updating DA cache (64 bytes @ 0x08002240) -- Read from DA cache (2 bytes @ 0x0800224E) - Data: FE F7  returns 0x02 (0001ms, 1267ms total)
T2264 2181:184 JLINK_ReadMemEx(0x08002250, 0x003C Bytes, ..., Flags = 0x02000000) -- CPU_ReadMem(64 bytes @ 0x08002280) -- Updating DA cache (64 bytes @ 0x08002280) -- Read from DA cache (60 bytes @ 0x08002250) - Data: DC FF FF F7 87 F8 FF F7 31 FD FF F7 A7 F8 FF F7 ...  returns 0x3C (0002ms, 1269ms total)
T2D9C 2181:279 JLINK_ReadMemEx(0x08002256, 0x0002 Bytes, ..., Flags = 0x02000000) -- Read from DA cache (2 bytes @ 0x08002256) - Data: FF F7  returns 0x02 (0000ms, 1269ms total)
T2D9C 2181:279 JLINK_SetBPEx(Addr = 0x0800225A, Type = 0xFFFFFFF2)  returns 0x0000000B (0000ms, 1269ms total)
T2D9C 2181:279 JLINK_SetBPEx(Addr = 0x080022BC, Type = 0xFFFFFFF2)  returns 0x0000000C (0000ms, 1269ms total)
T2D9C 2181:279 JLINK_Go() -- CPU_WriteMem(4 bytes @ 0xE0002000) -- CPU_WriteMem(4 bytes @ 0xE0002000) -- CPU_ReadMem(4 bytes @ 0xE0001000) -- CPU_WriteMem(4 bytes @ 0xE0002008) (0003ms, 1272ms total)
T2D9C 2181:383 JLINK_IsHalted()  returns FALSE (0000ms, 1272ms total)
T2D9C 2181:485 JLINK_IsHalted()  returns TRUE (0005ms, 1277ms total)
T2D9C 2181:490 JLINK_Halt()  returns 0x00 (0000ms, 1272ms total)
T2D9C 2181:490 JLINK_IsHalted()  returns TRUE (0000ms, 1272ms total)
T2D9C 2181:490 JLINK_IsHalted()  returns TRUE (0000ms, 1272ms total)
T2D9C 2181:490 JLINK_IsHalted()  returns TRUE (0000ms, 1272ms total)
T2D9C 2181:490 JLINK_ReadReg(R15 (PC))  returns 0x0800225A (0000ms, 1272ms total)
T2D9C 2181:490 JLINK_ReadReg(XPSR)  returns 0x61000000 (0000ms, 1272ms total)
T2D9C 2181:490 JLINK_ClrBPEx(BPHandle = 0x0000000B)  returns 0x00 (0000ms, 1272ms total)
T2D9C 2181:490 JLINK_ClrBPEx(BPHandle = 0x0000000C)  returns 0x00 (0000ms, 1272ms total)
T2D9C 2181:490 JLINK_ReadMemU32(0xE000ED30, 0x0001 Items, ...) -- CPU_ReadMem(4 bytes @ 0xE000ED30) - Data: 0B 00 00 00  returns 0x01 (0000ms, 1272ms total)
T2D9C 2181:490 JLINK_ReadMemU32(0xE0001028, 0x0001 Items, ...) -- CPU_ReadMem(4 bytes @ 0xE0001028) - Data: 00 00 00 00  returns 0x01 (0001ms, 1273ms total)
T2D9C 2181:491 JLINK_ReadMemU32(0xE0001038, 0x0001 Items, ...) -- CPU_ReadMem(4 bytes @ 0xE0001038) - Data: 00 02 00 00  returns 0x01 (0001ms, 1274ms total)
